!Agilent N9914A: A.06.08
!Date: Friday, 03 December 2010 10:15:38
!Model: N9914A
!Serial: MY52401117
!GPS Latitude: 
!GPS Longitude: 
!GPS TimeStamp: 0001-01-01 00:00:00Z
!GPS Seconds Since Last Read: 0
!CHECKSUM:2106328163
!Correction: S11(ON U)S21(ON U)S12(ON U)S22(ON U)
!S2P File: Measurements:S11,S21,S12,S22:
# Hz S DB R 50
100000000	-9.52406262804782	3.21302217570884	-82.1573962648778	-69.1368174949417	-85.4356895679381	-63.0270332645551	0.0294335884167938	7.77203703575068	
114500000	-9.5552765190049	3.93756772065139	-84.6158506766249	-108.146757169433	-75.2537125687557	-125.47130500148	0.0207689445907101	8.93909170440034	
129000000	-9.60176344396085	4.44000826159787	-75.7614555386737	149.748349603727	-75.8897561199821	42.274220300773	0.00819350614030766	10.0504713475035	
143500000	-9.6381117174785	4.73780364762164	-85.3825857926628	-152.20602561264	-81.8497761413187	151.407218425518	5.03970635211776E-05	11.061697167014	
158000000	-9.60020683169546	5.14125838007748	-75.9402169490007	50.5776565646019	-86.475617355982	-27.5499393065842	0.0201430602707428	12.1227599762848	
172500000	-9.54528561851726	5.51059315359276	-73.7202477596104	-59.3425280835076	-80.8925199834602	-2.95144091060516	0.0327310834060942	13.1960621270194	
187000000	-9.50509493398862	6.18251625076238	-84.3119938543965	16.735160029292	-76.5910666119356	-29.0244823886522	0.0420964343956081	14.32462625713	
201500000	-9.52091009820173	7.05951403480374	-77.3866520282145	-162.945778343064	-89.2958695083332	-59.5553053824693	0.055346745198497	15.5805407761004	
216000000	-9.58584234863372	7.64571204621038	-83.1543777153943	130.704982631195	-96.2905071041641	-149.084609372652	0.0438332220827906	16.7109493203857	
230500000	-9.64219304241558	7.85193679701646	-78.8479243130982	-11.0823325060048	-77.2932197082813	30.8339097128589	0.0343395342065325	17.738839583223	
245000000	-9.64028062210419	8.16644234673023	-74.9535637666241	87.0531921695474	-73.609141513245	-158.63152193006	0.0364127889615949	18.8086695879602	
259500000	-9.60230232688908	8.48570431597536	-75.1225634925304	-79.9838993620022	-72.2247301277126	-174.150805666913	0.0538052949655366	19.8474571993544	
274000000	-9.53098689771917	9.07629067184287	-87.6197637144311	-178.305133473199	-75.9747951889644	-161.368980130713	0.0720434611777564	20.9881316577918	
288500000	-9.50915260831099	9.69389453038596	-84.3161617140001	111.601392850794	-78.1265352932301	-123.721380168973	0.0904129813257473	22.2021529664012	
303000000	-9.54787355426695	10.6136780971961	-73.1048670991971	-97.829340392283	-77.2726679506002	-149.789991773524	0.0945914956607749	23.4481039361269	
317500000	-9.63841208381413	10.9625364322372	-71.2096818520464	-75.9691727830089	-88.6693545913471	92.6380423527092	0.0805435101195965	24.5252700400788	
332000000	-9.65102364740805	11.2355803893899	-81.9436609242703	-126.6355385147	-70.7395038364472	-111.505200525008	0.0698703764623532	25.5785644923708	
346500000	-9.66032703361693	11.5071250616788	-68.4703086782637	-43.3435916258972	-67.262970235481	-6.95157813372855	0.0792250073641041	26.6210007183754	
361000000	-9.57656017271456	11.8264743331906	-77.3226932501362	-166.366070674215	-89.9711639811636	108.445810861118	0.103220645597728	27.6540860327738	
375500000	-9.51657247487702	12.627157430377	-79.8364628832374	156.150607880414	-82.8279155574046	-88.1651828657614	0.124544618731914	28.7695216103595	
390000000	-9.52991824184293	13.3424840155384	-79.2739774095154	-166.02775497161	-96.3105098846871	173.28639488229	0.140905861264733	30.0315623071856	
404500000	-9.58721228283626	14.0301826069562	-75.3514880888478	-157.670565000504	-80.2852324825473	-153.442324086762	0.144624771752327	31.2747421679111	
419000000	-9.68302829056014	14.3079180233865	-78.5481668516868	-84.6209970913773	-79.9484772136715	-42.0290569789784	0.13952180942851	32.3924714323399	
433500000	-9.66559581517605	14.4929008060141	-82.7919446673102	122.716098995131	-72.2520760468239	176.528122678835	0.128913549345502	33.4551296308191	
448000000	-9.63599118015694	14.7791286403733	-66.6762273241105	55.9529972360716	-71.0395079682623	171.463926387331	0.14090425444694	34.5164025758675	
462500000	-9.5535026236074	15.2348758237125	-78.3499271248468	-155.058193685886	-92.4227941793074	-153.599533043415	0.165562621669986	35.6100827511592	
477000000	-9.51086108299383	16.1962963448063	-97.7323778491443	-175.213443854173	-82.4658501268914	-67.5649989930916	0.184324443443924	36.7583623358016	
491500000	-9.55249468158291	16.9541164655624	-77.4406288706286	14.5449282429936	-78.557061006426	-129.888221922897	0.201982608353004	38.033374359386	
506000000	-9.67138648092371	17.55637726942	-81.5246497739153	5.32926981142216	-80.3834547697307	-97.9054503318013	0.196976955967441	39.2164593088037	
520500000	-9.69661323929216	17.6742349718306	-73.9184613471858	70.813616711496	-77.8012361869394	-114.034758584644	0.187197135677239	40.3791548506119	
535000000	-9.6951153993094	17.7910901404622	-74.1616735437845	-32.7171636714174	-85.7046778571707	-47.8799707910116	0.182536846130714	41.5006658791484	
549500000	-9.61303030184666	18.1169537857792	-78.309895982661	-163.718178672043	-79.4525118501277	-8.46141744306667	0.208828390504923	42.5591710245252	
564000000	-9.52700487463216	18.9454670971248	-77.5405151482208	148.19438829614	-78.0450909301423	-118.916969698406	0.218786828904621	43.6064508617067	
578500000	-9.51852154576834	19.6625000665985	-79.8899452634086	-42.2419112633419	-75.8865465213991	-148.807917235786	0.247515541166381	44.8277625000466	
593000000	-9.58715389581984	20.6042269741704	-75.3455616715985	-83.2462216805507	-85.0123814117486	86.2874440997941	0.25753492007136	45.9685216859589	
607500000	-9.69506449445176	20.7770414233315	-89.144038431964	-98.5689995548535	-75.8760445333077	-73.2697636425028	0.256889950000033	47.1161729831665	
622000000	-9.7126754029892	20.9967181395322	-72.284971406496	-24.8753240388155	-77.5079302032208	33.0815262139728	0.253492868564558	48.2707139841884	
636500000	-9.67510224998138	21.1995745648775	-86.1562566520583	-29.5510324549532	-87.893527432926	-157.419136983446	0.270554741690093	49.3684198800379	
651000000	-9.5810144934259	21.7347400920977	-87.9872965372873	20.5291615545846	-78.0442136920819	70.4160966659092	0.287314001153788	50.584999713609	
665500000	-9.53858466632905	22.5643510540951	-82.3279129898325	87.7683551025057	-88.1169112006101	-156.412630334728	0.288463984075335	51.7006122485884	
680000000	-9.58767998561549	23.4322510406059	-86.4005942591393	-23.9193511293144	-85.5650659361101	165.677282765054	0.306795076763045	52.8587546990946	
694500000	-9.66405248280296	23.9894018659621	-87.2541688083702	128.71225744578	-91.373625622913	-89.1419145207715	0.315615407369544	53.9634551534064	
709000000	-9.73625681218267	24.3091703560311	-77.7317187684532	48.9764722187607	-82.8369535774631	-107.259208965529	0.31077426488361	55.1736920581456	
723500000	-9.74987799897045	24.3458932550649	-77.23504786116	-9.92303071388376	-76.6796765991458	80.5881742113972	0.308416475565251	56.2296884693204	
738000000	-9.6918881782063	24.5303158830123	-76.1878050630694	89.7400708888182	-78.9903987598033	20.3616280066205	0.32185291176801	57.4046493540327	
752500000	-9.60107937528576	25.2818919546802	-77.5991863259919	142.957876475433	-76.9073836420098	-48.6695988636767	0.332781067583944	58.5983541626686	
767000000	-9.59518372298959	26.1894847008796	-75.9075717262971	-66.9405348101125	-83.2443565910243	73.5182502849272	0.344518812708252	59.7659186805718	
781500000	-9.63415691500012	26.7541818944782	-90.0488945521341	151.385915011531	-82.1101655075891	-159.901059274461	0.362313314175191	60.9628313922186	
796000000	-9.70968713202164	27.3427578421043	-86.4796420227652	-129.369793451361	-93.3363647266973	129.504169123244	0.361593411125891	62.1615629411457	
810500000	-9.76665448207483	27.5308645979398	-76.9643539664192	151.931987559477	-77.998394342476	-159.635650407614	0.367267581920769	63.2584381043015	
825000000	-9.7502957127021	27.6429151099832	-74.8132521965573	39.8622838608387	-82.2413772808472	-44.9512047924359	0.361649192089847	64.2890030274827	
839500000	-9.66132408381957	28.1134916381753	-79.2442128300467	65.1407089255952	-74.6544101280138	128.075959891708	0.368354841832407	65.463317138324	
854000000	-9.61782986525095	28.9271366158223	-90.5191330369168	158.267596510067	-77.1856387127342	-91.5556643286836	0.375730007083803	66.5589982889515	
868500000	-9.63150217344637	29.5302756024586	-76.2923757154329	-89.0980452238289	-82.8371379570615	179.508348557209	0.404986891408021	67.8408026582053	
883000000	-9.7239632009421	30.3165146427746	-80.6507941473556	103.241016430384	-84.8188931383736	-144.219943056985	0.40922024917832	68.9717942847426	
897500000	-9.7900834701982	30.5795103601182	-78.8814252309503	125.614919776974	-76.6800134753867	-174.096408002957	0.412194882486975	70.3273327595245	
912000000	-9.79458551749367	30.7098126976926	-73.0025929879309	84.2958334795304	-82.3571495051538	140.582435715955	0.411156069782161	71.3860651954493	
926500000	-9.74739864854955	30.8495481082307	-81.4188190344552	158.94810076053	-79.0593587717595	26.9520563012681	0.403121897208529	72.4849709463113	
941000000	-9.64793073401154	31.7573502535521	-91.2646010724402	-61.6089458477603	-76.2884327651668	70.5496169972181	0.402372126941406	73.5611150658599	
955500000	-9.64197884166334	32.3330278302988	-83.4031688958559	-5.37684626264615	-82.1886623322555	73.3551727320465	0.414829561250019	74.6937949545	
970000000	-9.71319345754736	33.336707623587	-81.7393680791609	-153.8446526928	-83.6945165574526	65.3067586009654	0.430459490004344	75.8209634106123	
984500000	-9.77459438307871	33.6952408743973	-90.831747257036	-39.0607490711638	-77.2020536109134	47.0346548246107	0.441742344178695	77.0989103714843	
999000000	-9.84407081292465	33.8395202290826	-80.5724658476933	93.6625520320243	-76.7443327204322	171.56296140376	0.444523374897642	78.3115805947461	
1013500000	-9.8239409284751	33.9241092236228	-78.7117690108177	106.704386881317	-75.355597128393	43.3502882628213	0.43756020064731	79.4913634631224	
1028000000	-9.73081924540664	34.2786107723722	-78.5467097436928	-33.4262953117169	-78.0221339175846	101.878707491804	0.430590587664754	80.6434239177733	
1042500000	-9.65400831175346	35.3775172744397	-78.5597248152307	-121.608738789842	-80.5321450983529	108.254212322272	0.425257051616522	81.6682414196069	
1057000000	-9.67573865249765	35.9084899083174	-75.0635632674599	79.282317404099	-75.8877080757749	13.7629146940161	0.444772170782767	82.7957124208989	
1071500000	-9.77327581858721	36.8488753554213	-81.1888200168522	-85.773855460182	-84.3026210548309	-70.2740732360676	0.455893452609922	83.8510811446745	
1086000000	-9.87668978207666	37.1525519430108	-84.8895336519672	-109.770052537736	-79.0530761730691	70.6038919961132	0.458995840947882	85.091982060732	
1100500000	-9.8995638624764	37.0652228884474	-75.1149292774608	-63.509977343043	-82.0318635927782	-17.5744483556625	0.461096811913803	86.2978382006009	
1115000000	-9.82076187739183	37.2252608915065	-75.6884674851796	125.295500064239	-74.1650844105584	145.953434588177	0.451266571346607	87.5451774482092	
1129500000	-9.73082209246775	37.7453932389353	-76.8186211227418	69.9241180006108	-80.3781683613785	24.0067725402881	0.440350631696902	88.6824599772786	
1144000000	-9.68919519218181	38.5406795565108	-80.2857318962646	145.213495918976	-77.3888288768593	69.8156697892723	0.439670725729737	89.8047374306517	
1158500000	-9.74292422184163	39.6592768425454	-77.4410676533246	-33.7721740899669	-79.3290604313361	-104.646338214251	0.449549153878533	90.8803775976035	
1173000000	-9.82171978935731	40.2476105757771	-82.142186521065	-160.755380847896	-82.0125052429721	18.4257055345103	0.460203060383441	92.021643926434	
1187500000	-9.90879204932965	40.3662151377166	-77.7058384953816	-63.8985853212946	-76.2431048121572	-121.872268131064	0.465293954002639	93.1384678323615	
1202000000	-9.91038140137723	40.3806767680643	-86.6540631681656	-41.9470188118276	-77.6202947118507	156.436794772294	0.464026528172549	94.252507328205	
1216500000	-9.79577054037369	40.7750727138233	-77.5315424027722	-27.4912031904994	-83.2822311835015	21.5689297182478	0.444866032153075	95.4463523335548	
1231000000	-9.76231538488774	41.1453960206876	-77.8714119803806	-122.303737820535	-87.4255243292345	77.6329999450848	0.431527289648325	96.6094721149656	
1245500000	-9.74102334026271	42.2670003462706	-77.0881551931851	-117.431299743672	-82.382331214156	71.2644342690612	0.437122753348171	97.7336094074334	
1260000000	-9.80241732210098	43.1900320225819	-90.1309690651545	104.646430656231	-85.6019124357902	121.840819086936	0.442554064032445	98.8258054337109	
1274500000	-9.92274801984373	43.6624879431996	-85.0180193324708	118.502388541459	-78.982328827045	-165.311291557682	0.453164939154928	100.038248701282	
1289000000	-9.97383445412942	43.6499538663268	-81.5957193576483	-18.2796638307698	-80.9415304144966	-83.3629644219217	0.449153597399347	101.167302918851	
1303500000	-9.93676115255378	43.6785671776576	-78.5471681268195	-125.779283232694	-79.5093424014329	106.76062879959	0.444882580801526	102.233526423103	
1318000000	-9.83741467098253	44.1503870936346	-82.6476592739309	65.3852295076587	-82.3580050253524	81.6470661918292	0.426155667055094	103.336993020523	
1332500000	-9.78522004136931	45.122025321466	-87.0396195805914	-39.1682250969072	-79.4965948651138	150.87117672839	0.411776441923465	104.397822691926	
1347000000	-9.81194519541238	45.9149938280673	-88.0093160323189	96.6339928471384	-79.1542903514358	47.5383433929077	0.419370607484677	105.554683658534	
1361500000	-9.9078458962708	46.5492576321964	-81.461720815532	125.416549188863	-87.2675264723506	1.22552716621289	0.421214365661488	106.722875516818	
1376000000	-10.0035213343348	46.7726657031513	-79.247482082064	-53.7992082141365	-76.9712610117579	119.642394886834	0.430394819922224	107.83421721553	
1390500000	-10.0083227885655	46.8265639312877	-83.0851218765577	-50.1600645580401	-82.3492702159096	53.1667696897211	0.422544018755019	108.994904213876	
1405000000	-9.96510899151191	46.8793892380589	-77.1227128388533	176.514484986436	-85.3284380310744	173.655868145702	0.40149808587423	110.20873586424	
1419500000	-9.85789891027727	47.5441431461653	-91.8018915445455	101.265111995109	-90.9798645739412	152.67618717047	0.384094567003171	111.143126721595	
1434000000	-9.84289796603965	48.5929019695197	-81.9837436182604	-77.3492011792584	-93.841569444403	-38.7683289791126	0.369634130742894	112.138052332423	
1448500000	-9.91216143673621	49.4740032554552	-83.710089071448	90.3356950619484	-85.7094169812663	22.6304650981037	0.375967873818799	113.194650156661	
1463000000	-10.0241035906142	49.989587699564	-84.3368753203569	77.162784920026	-73.9183172330697	-2.73721618518169	0.389443334501746	114.408273470871	
1477500000	-10.0704123302641	49.8958378641852	-82.4231822039325	84.7775686773619	-93.5819960484219	-149.362582706614	0.390351355957083	115.637184818037	
1492000000	-10.0661217151158	49.9534211363459	-105.37172877201	-145.088866807792	-76.7633299500615	56.6686488326497	0.383834294541563	116.830091204313	
1506500000	-9.96311548474481	50.2007493652684	-76.2434670153276	-56.0243042730063	-79.3725167063315	35.8427422461495	0.358652207971197	117.90235328681	
1521000000	-9.8865045688925	51.1606534057996	-76.9579536021127	-124.580300994823	-80.5239483461694	79.0632018386721	0.334376190759933	118.884817540462	
1535500000	-9.90882813546336	52.3232182835939	-89.9441621978278	70.8791626726214	-77.4425805410781	-64.2534713824921	0.323055910725154	119.827725392187	
1550000000	-9.98434308375811	52.6903325611297	-80.3466197313045	-43.4113518675913	-81.323788498671	-42.709140968364	0.336874154549666	120.880681758367	
1564500000	-10.1007089496543	53.1388668009942	-78.4827863791441	-103.824850813831	-77.1164115619682	-22.7290556782656	0.349331022849179	121.966720444704	
1579000000	-10.1469228330297	53.1225474911881	-85.8194156867337	31.5943897644327	-87.4351945755362	40.9488338366898	0.344375757474421	123.156611962318	
1593500000	-10.0940538615123	53.0797642176108	-79.5253686032473	119.161892851472	-86.5625723491977	84.5766004851236	0.335398904740462	124.300932281036	
1608000000	-9.96012463671165	53.6986899043957	-76.5187576912523	40.0362576525375	-83.3944875647849	-126.657711622037	0.30670806483585	125.440470836606	
1622500000	-9.91483342510137	54.9880750637882	-75.8750859968515	-154.920182048074	-73.6249881804085	-116.530566569929	0.274678532489503	126.410099877364	
1637000000	-9.95547584401939	55.6516958192418	-80.1281715805025	110.976432729597	-72.8638133591424	39.9210555855184	0.270494571102377	127.404579850454	
1651500000	-10.0771965787822	56.2864600086022	-80.1189551112746	-115.801282076438	-81.034471737122	121.370795196816	0.286163555493057	128.407882632073	
1666000000	-10.1927362197735	56.3124139933902	-76.987353546361	-30.2654485151911	-84.2259815878015	-138.015330161851	0.292150968317888	129.458954507016	
1680500000	-10.2121756412004	56.1555073194814	-76.2575526427485	-148.430340366241	-78.5558945433683	25.7154651101057	0.288992511156429	130.515035058387	
1695000000	-10.1046220404262	56.2285781767752	-87.3718468904567	19.9724104685843	-79.4291524171494	162.963665631778	0.270319506184142	131.679187314956	
1709500000	-9.97771867988755	57.2505004659635	-76.0564115361809	3.71488777748179	-78.4186207828675	-14.7833055866499	0.243511442529439	132.76217849124	
1724000000	-9.97602890040672	58.2530072825522	-90.2794225193287	108.510644566103	-83.7266334799927	74.7828644446613	0.214195009482825	133.764819367284	
1738500000	-10.0357813374467	58.9768311384686	-77.5539260534474	-171.749391162906	-87.9468745728089	-156.279636492405	0.216391838782056	134.806693186572	
1753000000	-10.1714031516281	59.5121150841188	-82.414548052956	99.8266493204915	-78.0243072643465	83.6049388130489	0.228273397875852	135.810654417394	
1767500000	-10.2423563710839	59.4895565898668	-80.1746208126275	-47.5485096276754	-83.3070469576587	43.3533510571386	0.234487133798133	136.854981844895	
1782000000	-10.2147048069162	59.188961020567	-78.4347614816379	124.661536422659	-82.2138213400301	78.0496068443321	0.230405592143705	137.860149572169	
1796500000	-10.0930153529801	59.7036218930364	-78.3100959570443	19.0409367797633	-93.1072788034881	33.4799282002541	0.204895457627967	138.896980274223	
1811000000	-10.0173260242008	60.8269405217567	-72.8790371008652	-142.677036682558	-82.1337642557184	84.2344617824209	0.174711015866926	139.864358623363	
1825500000	-10.0470998903336	61.7716577878602	-80.6970233435659	-48.2390610458392	-89.5132128341187	175.601642449685	0.153784366731178	140.829197831572	
1840000000	-10.1308617133445	62.2275955555305	-87.5374356688556	64.4881399566481	-80.0542438210199	2.18851297500683	0.163189270312202	141.877613745188	
1854500000	-10.2503307092292	62.5503530223773	-85.6671400490675	-11.5476851257334	-80.1745390762741	19.0710126857399	0.17859038484235	142.992189673572	
1869000000	-10.2876010533612	62.467469811404	-82.6143563555744	17.6259337251289	-94.3209750413298	-66.3976544059604	0.172113414535984	144.048720549269	
1883500000	-10.2071825273399	62.41555968748	-80.3998265640234	16.3076568911021	-79.4564730853834	8.89148884475824	0.149763814710912	145.070825301465	
1898000000	-10.1151390901118	63.0474427946657	-78.5770830087998	-147.864982278524	-85.3294604649139	29.9856714270144	0.12960119391016	146.031507589137	
1912500000	-10.0744794155477	64.1062541878511	-83.9059740585465	-154.686474676453	-75.2206363552881	1.81386565293969	0.105170823195868	146.958944496976	
1927000000	-10.1611511003867	65.1607185921993	-95.7142144905112	-65.9012661672397	-75.1520109225829	111.953127583268	0.0929890348451251	147.885780936073	
1941500000	-10.2725420622003	65.574699815432	-75.5548754461709	-47.4238680195833	-82.5785448891199	17.4116960193333	0.101010410385198	148.889491832326	
1956000000	-10.325145859728	65.5374185657956	-80.7819475102606	106.080297906675	-75.3028639757304	-43.6746526408227	0.116399312330001	149.993321657613	
