!Agilent N9914A: A.06.08
!Date: Friday, 03 December 2010 09:54:41
!Model: N9914A
!Serial: MY52401117
!GPS Latitude: 
!GPS Longitude: 
!GPS TimeStamp: 0001-01-01 00:00:00Z
!GPS Seconds Since Last Read: 0
!CHECKSUM:1664103457
!Correction: S11(ON U)S21(ON U)S12(ON U)S22(ON U)
!S2P File: Measurements:S11,S21,S12,S22:
# Hz S RI R 50
100000000	0.0019635007407681	-0.00730512590552009	1.00029115826098	0.00151625637914703	0.998135651722741	0.00115489144542655	0.00353266248362109	-0.00633862842343882	
114500000	0.00293757250575613	-0.0072365505893727	1.00020412492713	0.00308341110857689	0.997966538010581	0.00264826866974032	-0.000217091403591213	-0.00383636469166682	
129000000	0.00225057826363284	-0.00625426807789832	1.00018091910012	0.00115582071460064	0.99754123110626	0.00249832298210766	-0.00657568565529935	-0.0051809329003556	
143500000	0.000772385407198958	-0.00817820601952559	0.998338381500132	0.000688217256289578	0.996416495553641	0.00118527205860328	-0.0089786381892516	-0.00858117259063354	
158000000	-0.0015633684706426	-0.00924504709287829	0.998599429623286	0.00150837455433515	0.997053144978769	0.00151617599508646	-0.00788930436282892	-0.0122096544508527	
172500000	-0.000818658650297755	-0.0107906068343356	1.0016126545653	0.000494540832541336	0.999867720131145	0.000744418722788444	-0.00440070719684254	-0.0140352100845702	
187000000	-0.000319623772191119	-0.0114139629298234	1.00279723266005	0.00124281068885636	1.00098121291087	0.00171013249719865	-0.000885654792174835	-0.0127349818049545	
201500000	0.00169217342831526	-0.0103369373325363	1.00142156305635	0.00339789811729567	0.99976469032963	0.00352042185937373	-0.00166954791246654	-0.00922977281296358	
216000000	0.00213830680326034	-0.0111193872411695	1.00005741399919	0.00237773895817414	0.99835470732559	0.00251781984182728	-0.00467762497390916	-0.00950667166189387	
230500000	0.00125105664215045	-0.0117047636189985	0.997807080275315	0.00320423428946363	0.99624747300443	0.00273222590549647	-0.0102120752772461	-0.0111545097475025	
245000000	0.000335836630292157	-0.0142394016667159	0.997157448282571	0.000689008483774539	0.995951173391834	0.00102894236221453	-0.0102966458769629	-0.0166406608105504	
259500000	-0.000895129054194075	-0.0163989046936966	0.999608769474521	0.00140002590298281	0.998252067132611	0.00155462225324816	-0.00583828648006788	-0.0194997546283109	
274000000	-0.000413618914827689	-0.0166770584957161	1.00150041674163	0.00190538844121617	0.99988824340734	0.00242977019555833	0.000403420314375551	-0.0196106495641237	
288500000	0.000881064022685638	-0.0155807325452281	1.00161850236367	0.00188201434441983	0.999887773541532	0.00215652851978897	0.00185625239768032	-0.0178509660656243	
303000000	0.00162154687752768	-0.0143131900198236	0.99966727402412	0.00271164028064116	0.998141863808746	0.00331303014079444	-0.000771979260746607	-0.014785962172122	
317500000	0.00167952640695767	-0.014106943555757	0.997136561283949	0.00355834991205151	0.995900639244995	0.00379556316738122	-0.0081546977374259	-0.0148044271649986	
332000000	0.00121895068972041	-0.0151448127220907	0.995996894162642	0.00297897800103766	0.994650288327985	0.00301208391876148	-0.0116077374124937	-0.0183951212840839	
346500000	0.00122456716354451	-0.0179569846239165	0.996675591746884	0.00216916681847737	0.994952598589598	0.00207798022787142	-0.0109249336536335	-0.0233192167378179	
361000000	0.00185386145855508	-0.0194759285235652	0.999305744626519	0.00189582480168983	0.997993778228686	0.00246809656056501	-0.00483021313012387	-0.0251545941952487	
375500000	0.00313245842678552	-0.0201536424708994	1.00042769897119	0.00446850435297987	0.999606211362356	0.00472403081069521	-0.000597634864552741	-0.0239196669291042	
390000000	0.0040124491342877	-0.0187192393726607	0.999996608293685	0.00416264546731694	0.998636116743475	0.0039433122237611	-0.00113079596086765	-0.0214044667337785	
404500000	0.00384039617223002	-0.0195425108136101	0.998076509186335	0.00403187991316978	0.996496970822783	0.00447316384282229	-0.00528191209794058	-0.0208608019258461	
419000000	0.00282132894184325	-0.0199585074119465	0.995231674235035	0.00567480109471516	0.993980422657644	0.00569559884166099	-0.0116476235428877	-0.0219950062823644	
433500000	0.00237571170735695	-0.022044119957736	0.995103945460734	0.00283444293260582	0.993767629296321	0.00286829699756458	-0.0121021178250207	-0.0285044275090554	
448000000	0.00264315103303731	-0.023495115455267	0.996477067093247	0.00243206076101746	0.995272334588102	0.0027908196855688	-0.00887814038243874	-0.0310924661480534	
462500000	0.00357529236458689	-0.0246913133330248	0.998706432064119	0.00304459783798716	0.997622916308251	0.00366163800603442	-0.00259870789114164	-0.0321749625666192	
477000000	0.00412708909831686	-0.0230762871697163	0.999482826023652	0.00369319440060256	0.998311662030245	0.00417161662820248	0.000478376419845343	-0.0295988642354686	
491500000	0.0041259523986156	-0.0225988883261366	0.998197846031124	0.00499610414417523	0.996755002567554	0.00551226860677612	-0.00150902419747071	-0.0270806812940559	
506000000	0.00346895276352584	-0.0228731359737602	0.995370530968301	0.00675025289564982	0.993763774415456	0.00678333905040851	-0.00940738866640898	-0.0253965992986661	
520500000	0.0032167315616108	-0.0234420699036104	0.994742581106297	0.00480095305871722	0.993132400321365	0.00452428407674307	-0.0120804622487974	-0.0303105911666393	
535000000	0.00406150711014151	-0.0255938352250175	0.99470078106024	0.00484309991241624	0.993223096359589	0.00470897960312766	-0.0126849794193469	-0.0348209258090355	
549500000	0.00515279070265047	-0.0274394070048344	0.996892203830484	0.00369847025013068	0.995453845542871	0.00387168524673581	-0.00806340417546573	-0.0370816191510596	
564000000	0.00649835330045903	-0.028200435087133	0.998376388793252	0.00640209115719736	0.997296553561975	0.00681952081175524	-0.00237603792255515	-0.0369082131973029	
578500000	0.0073826438651391	-0.0273112143830824	0.997994196694114	0.00531783096675653	0.997293653419461	0.00564790905344553	-0.00239534498558886	-0.0342093081181639	
593000000	0.00653142968324632	-0.0268790060511768	0.996069995095765	0.00651887349088168	0.994560925068606	0.00648871476425683	-0.00604170056589319	-0.0335695860844015	
607500000	0.00608695979298252	-0.0274415788120312	0.994157652655759	0.00641015793660335	0.992831377544578	0.00659423023971309	-0.0118557267581072	-0.0344285642449766	
622000000	0.0051293666533638	-0.0289465638679645	0.993353935681201	0.00651921549616241	0.992200497392647	0.00645619920971227	-0.0134987653912101	-0.038131364126985	
636500000	0.00486741873259404	-0.0323076056085613	0.99524026346239	0.00642308391528318	0.993940770642193	0.00641511043820581	-0.00994266666274053	-0.0432607061114837	
651000000	0.00654556666381384	-0.0328660574619892	0.997914091786594	0.00666498729188084	0.996434731161309	0.00694195417596358	-0.00430876195542161	-0.0436246691720177	
665500000	0.00721670152188852	-0.0317713248036573	0.998232328096275	0.0078715613203397	0.997154382365561	0.00826307855628092	-0.0019005286175091	-0.0397990802729974	
680000000	0.00848934843943231	-0.0295870366057879	0.996340324520396	0.00928847831168814	0.994685492147248	0.00927961351587836	-0.00454711202864772	-0.0370749076326996	
694500000	0.00721197697043984	-0.0296593374845277	0.994416717689686	0.00906152951677625	0.99290552834014	0.00920818236358836	-0.00988042655305633	-0.0364203350089689	
709000000	0.00711925755742067	-0.0309642661837036	0.992689720334568	0.00971958686637905	0.991701232946851	0.00947387642086855	-0.014188721390783	-0.0397639558965437	
723500000	0.00665714645382065	-0.0338251498190386	0.992902004024117	0.00749186608589292	0.991581913899617	0.00763153200631925	-0.0148464921925156	-0.0460202287022243	
738000000	0.00704528507491285	-0.0360831374170614	0.994666264100546	0.00625484336943691	0.993162003578186	0.00639035769207053	-0.0119940862044323	-0.0503993240907893	
752500000	0.00791429130512424	-0.0363766943617551	0.997392577832278	0.00797598692581664	0.996406702529568	0.00792940400418624	-0.00426293570183626	-0.048133802019807	
767000000	0.00869246785975299	-0.0353717906687899	0.996773101994885	0.0102684757936544	0.995845130063274	0.0103013763953053	-0.0036624723888499	-0.0455955479953329	
781500000	0.00926578203039411	-0.033977780475463	0.99494265398326	0.00943983634154338	0.993765617065444	0.00989155208427323	-0.00678181187167303	-0.0441186631917014	
796000000	0.00875423680508664	-0.0345865138088834	0.992614422094378	0.00936668583870393	0.991758278863239	0.00961977697098598	-0.0120478108018176	-0.0454637346500108	
810500000	0.00885132699188249	-0.036358578789146	0.991697295344841	0.0103018511492262	0.990682524205344	0.0101821993840469	-0.0156063351909075	-0.0490939976974643	
825000000	0.00802724804108195	-0.0391485948944865	0.992051743580699	0.00821239693720816	0.991112943526772	0.00820338221994382	-0.0144172703236014	-0.0544635684473766	
839500000	0.00873330291742208	-0.0400278778701644	0.995170486417758	0.00794819657819129	0.993660947711656	0.00850305997892953	-0.00850559584158331	-0.0555659909874765	
854000000	0.00869128127132865	-0.0391537401819065	0.996528908488533	0.0107295387451478	0.995183937800225	0.010880789488899	-0.00358108925774625	-0.0530311119953195	
868500000	0.0101736435967622	-0.0371683532807515	0.995553246036323	0.00979852287918448	0.994454776387115	0.00945129730259348	-0.00335485661467899	-0.0505675913057167	
883000000	0.00985313746843582	-0.0370388418243896	0.992191758084832	0.0116004008180666	0.99084193867411	0.0117132166946018	-0.0107204493517262	-0.0476870623123344	
897500000	0.0108459397340387	-0.0382371080564202	0.990583488366099	0.0108288870156398	0.990113805682992	0.0108780366048488	-0.0164660275767836	-0.0518575216873163	
912000000	0.0111118162528306	-0.0411612957967025	0.990822913454618	0.0103233775338375	0.989945405739786	0.0109252578601598	-0.0179929911702598	-0.0560233926761606	
926500000	0.0106709653832336	-0.0436711024227531	0.991627116120693	0.00888751148278327	0.990532356217313	0.00884925737721076	-0.0157035095931097	-0.0617487837551666	
941000000	0.0109524036039314	-0.0436276119748176	0.994714850744053	0.0113448590532048	0.994026888160367	0.0117191014074987	-0.00722293700201916	-0.0598627620670194	
955500000	0.0109605349517257	-0.0416585850061488	0.995354289669575	0.0102840517535528	0.994169036165843	0.0103935540819648	-0.0046529475453922	-0.0582422204636084	
970000000	0.0115758857942915	-0.0397278300529242	0.992484941051004	0.0130398545138129	0.991589218000346	0.013198437373069	-0.00813744787224707	-0.0536025551872909	
984500000	0.0116017612378976	-0.0402053352280123	0.990718925923121	0.0120375298871856	0.989595517481515	0.0116853327840181	-0.013415483111809	-0.0556137487033605	
999000000	0.0125776586113682	-0.0420449552775645	0.989472802752178	0.012785606268616	0.988543259518443	0.0128892847227934	-0.0193869810912424	-0.058217243334414	
1013500000	0.0123596574128906	-0.0452499626326883	0.989935283138553	0.0102573749462482	0.988671757516007	0.0107347345045517	-0.0200320581622597	-0.0642374589749682	
1028000000	0.0134457966878429	-0.0466273091767831	0.991988986625679	0.0112022944452093	0.990784429867314	0.0112514262977604	-0.0147558240777731	-0.0665695431295439	
1042500000	0.0136021720601535	-0.0458135093024287	0.994510448533195	0.0133410086569373	0.993329810557496	0.0137927033822838	-0.00749370457903844	-0.063530706939513	
1057000000	0.0139800040386226	-0.0439216594469872	0.994027814894863	0.0118439474544143	0.992765503178559	0.0119864300353575	-0.00664348682015556	-0.063632093005101	
1071500000	0.0135078478865995	-0.0435290377123996	0.991207850120551	0.0148306573568104	0.989434891808822	0.0151276898537763	-0.0125543532547662	-0.0598477610565807	
1086000000	0.0134923795978674	-0.0443257157286342	0.989030519402406	0.0135606793492335	0.988115221508178	0.0138023075807335	-0.0187762737435818	-0.062055612035217	
1100500000	0.0139239458075081	-0.0462824949169031	0.988490343316851	0.0124364295639475	0.987717634931373	0.0128740686843609	-0.0225522881262587	-0.0666743784482899	
1115000000	0.014272877183939	-0.0482103027109421	0.989817052425706	0.0131013672737554	0.989033846823336	0.0128597683091453	-0.0182182880883044	-0.0701754746710657	
1129500000	0.0149927603173997	-0.0484339798318027	0.992755231436478	0.011775797909428	0.991897985018303	0.0121226903151204	-0.0130489315436702	-0.0709961334020996	
1144000000	0.0156288694010495	-0.0472865597382201	0.994136094301636	0.0128110640564555	0.992869746306055	0.0131033063841879	-0.0090892948058061	-0.0695325933442227	
1158500000	0.0160834772649112	-0.0454135521680709	0.991799885913981	0.0155749283539391	0.990518552989837	0.0163817931142087	-0.0103321299093193	-0.0651764221440764	
1173000000	0.0151804534681484	-0.0455664945970651	0.98923152157582	0.0152381367439553	0.988033948577376	0.0153593243023231	-0.0165630562996435	-0.0657275066005796	
1187500000	0.0147927419288901	-0.0477556900989351	0.988475126803611	0.0144079604647172	0.98724644728931	0.0142188282659666	-0.0216116278951181	-0.0692568435879386	
1202000000	0.0144829131688758	-0.0497127478552256	0.988830231788336	0.0150156162807591	0.98746185735987	0.0150539507491203	-0.0212601252605793	-0.0730589704974529	
1216500000	0.0153434854297958	-0.0508597343597689	0.991846911055519	0.0145648696915228	0.990276223398725	0.0152246958867985	-0.0152393652492531	-0.0751442092262872	
1231000000	0.016361913333138	-0.0496538586286867	0.99228722793796	0.012852570974976	0.991431870316707	0.0130228983993231	-0.0131585191708934	-0.0766022275317509	
1245500000	0.017762062750671	-0.048145030356532	0.992639272817196	0.0158234488907811	0.991926727646253	0.0159418428185458	-0.00992498995461161	-0.0723819773898893	
1260000000	0.0172984453428625	-0.0471268675247855	0.989719453936047	0.0167711810834751	0.989049801126841	0.0166788838124927	-0.0143464112936889	-0.0712616462935211	
1274500000	0.0162499066569781	-0.0490152071574329	0.987272749164238	0.0170625157449026	0.98633341747555	0.017417210274277	-0.0222742008107059	-0.0716042309708488	
1289000000	0.0154729493210307	-0.0516222116074239	0.986947168081791	0.0154509672997351	0.985981820339453	0.015689268335896	-0.0251358518433883	-0.0768959824959772	
1303500000	0.0152442920569976	-0.0534771524978208	0.98797068409174	0.0147828749031768	0.986573857555836	0.0152300156114643	-0.0221312421538764	-0.0808363491634684	
1318000000	0.0161104640803412	-0.0529692119615492	0.990583246774764	0.0154076512481101	0.989809609256612	0.0154731785364206	-0.0157336801571352	-0.0820528482207546	
1332500000	0.0180452664301976	-0.0510907769791403	0.992768842979018	0.0170141283464083	0.991613453386342	0.0174843706197214	-0.0099116911738864	-0.0780732619247119	
1347000000	0.0183578805765451	-0.0484597977673038	0.990733215756983	0.0174993097872329	0.990211184344214	0.0183043888466376	-0.0108040504930535	-0.0759566790352756	
1361500000	0.0178894600402894	-0.0487467740553037	0.988270095356046	0.018119867741147	0.986677662152787	0.0185320263504591	-0.0186778605722905	-0.0741718299817968	
1376000000	0.017715933532445	-0.0511236960987222	0.986090995531595	0.0172564544528524	0.985090096651605	0.0178980834668138	-0.0258518679466795	-0.0762807803366019	
1390500000	0.0177312317052362	-0.053540681186378	0.986730648900215	0.0179233607843825	0.984721425801348	0.0174494805872001	-0.0267960105668346	-0.0816214588307417	
1405000000	0.0180373810872762	-0.0551622466850946	0.98688666520275	0.0155800513508699	0.9857434621488	0.0158474966907298	-0.0237635877355673	-0.0870905435510117	
1419500000	0.0192620556546705	-0.0545033643658406	0.99015640557212	0.0162641172594727	0.989077783496067	0.0167586996503063	-0.0151977672378117	-0.0864514683306108	
1434000000	0.0196222280204406	-0.0523930305841721	0.990774093964408	0.0178742386757708	0.989813917034675	0.0180924802531751	-0.0119792770038323	-0.0832868563378744	
1448500000	0.0200833197817233	-0.0500698502856288	0.988528240627823	0.020353337578693	0.986876577763386	0.0200062365079131	-0.0161788419684513	-0.0793043516316714	
1463000000	0.0200983589727163	-0.0512174115535732	0.985133888905187	0.0200315202529359	0.983531303809622	0.0202845988851642	-0.0250172317843763	-0.0778889489683306	
1477500000	0.0193330860799656	-0.0532272556047594	0.984126069971221	0.0180133901313223	0.982966228601108	0.0182363920623131	-0.0300831931445871	-0.0837577897406197	
1492000000	0.0203405314304477	-0.056070323995458	0.984562933067628	0.0175101841804216	0.982969005887781	0.0177522362423967	-0.0291567412947302	-0.0886318867837847	
1506500000	0.0214610013832537	-0.0569930155917428	0.987636334154347	0.0167858137848823	0.986805421974052	0.0167829784776629	-0.0227528156400859	-0.0923501285223857	
1521000000	0.0219731469345995	-0.0558731645712397	0.990114451876094	0.0189205274005461	0.988858671490669	0.0190248985672394	-0.0159120845137052	-0.0908553139576966	
1535500000	0.0227947509099699	-0.0539332119397578	0.988339463960056	0.0222289008888285	0.987863520122221	0.0224975536133204	-0.0147258866353079	-0.0851610485452618	
1550000000	0.0222874324452551	-0.0542901668684273	0.985992624138835	0.0219018700682531	0.984800093358617	0.021834208526415	-0.0200481797740396	-0.0838072695266076	
1564500000	0.0205106177269225	-0.0544843365357836	0.982772261335565	0.0210570606245711	0.982147760597474	0.0215256769815749	-0.0280786489495314	-0.0844229611213862	
1579000000	0.0211605129277956	-0.0563414727894884	0.982931933774189	0.0197753874030112	0.981835662355303	0.0199391931077407	-0.0320143206462343	-0.0892263160604138	
1593500000	0.0221556778278482	-0.058674111968642	0.98395650244025	0.0176788050808696	0.982945774690104	0.0180497146893908	-0.0294847949426609	-0.093490547287058	
1608000000	0.0246226228610249	-0.0581578793995581	0.987909206643646	0.0192397997305244	0.987046992073448	0.0191978970460377	-0.0215256802921562	-0.0949821383422711	
1622500000	0.0252810603136976	-0.0557924858398008	0.989595200216093	0.0222511129173038	0.988266696419103	0.0224022163743831	-0.0167469139114136	-0.0909727124586798	
1637000000	0.0243346485771835	-0.0544649589876042	0.987442400758109	0.02247959518124	0.986857404018288	0.0224656260673346	-0.0178151496441645	-0.0906193088941053	
1651500000	0.022299171538238	-0.0548308902019456	0.9841243504264	0.0227471908058771	0.982994876669975	0.0231061902035037	-0.0259479725129105	-0.0888483507770938	
1666000000	0.0219390558207435	-0.0576947880413784	0.982058437701133	0.0216051469327584	0.980883375404195	0.0221772538247654	-0.0322291548063288	-0.0911212501774709	
1680500000	0.0231376997125554	-0.059410263400567	0.981358832677763	0.020235064757387	0.981096841809724	0.0196904627209899	-0.0333357289666245	-0.0965725024168041	
1695000000	0.025261782689223	-0.0611393063355078	0.98432711868384	0.01967678159571	0.983443960566202	0.0194207921151791	-0.0273323835491233	-0.0996620462664439	
1709500000	0.027296802251065	-0.0595711073411872	0.988169154615204	0.0222568960004065	0.987333864638455	0.0219444325048525	-0.0196624738267815	-0.0986977312663475	
1724000000	0.0272956119932349	-0.0575065630807646	0.98817157964607	0.0245140084571843	0.987228333459479	0.0245938453203028	-0.0177941260856387	-0.0952932583228022	
1738500000	0.0258811059536741	-0.0567767437794703	0.985987073400603	0.0243348953645629	0.984899226011117	0.0251701707975605	-0.021827857592473	-0.0940076208160689	
1753000000	0.0240467824367386	-0.0590651442550685	0.982753624383519	0.0248854454954339	0.98165828031409	0.0252487502070982	-0.0294331169266799	-0.094296390458561	
1767500000	0.0238083573578343	-0.0609766961729821	0.981565816586111	0.0240026854524077	0.980970258536147	0.0245355408176522	-0.033460519370696	-0.0987095948911238	
1782000000	0.0249147653107231	-0.0630291880429913	0.982664824014417	0.0222250457452429	0.981315132790101	0.0225207130775028	-0.0323442307319641	-0.10291212779539	
1796500000	0.026960422383736	-0.0634897295189476	0.986055361740547	0.0223476641976241	0.984865522196329	0.0222632589502626	-0.0247414073244467	-0.104619215141014	
